T695C 1830:235 SEGGER J-Link V6.50b Log File (0001ms, 1379ms total)
T695C 1830:235 DLL Compiled: Sep  6 2019 17:57:35 (0001ms, 1379ms total)
T695C 1830:235 Logging started @ 2019-12-09 18:33 (0001ms, 1379ms total)
T695C 1830:236 JLINK_SetWarnOutHandler(...) (0000ms, 1379ms total)
T695C 1830:236 JLINK_OpenEx(...)
Firmware: J-Link EDU Mini V1 compiled Aug 27 2019 09:26:01
Hardware: V1.00
S/N: 801012703
Feature(s): FlashBP, GDB
TELNET listener socket opened on port 19021WEBSRV 
Starting webserver (0040ms, 1419ms total)
T695C 1830:236 WEBSRV Webserver running on local port 19080 (0040ms, 1419ms total)
T695C 1830:236   returns O.K. (0040ms, 1419ms total)
T695C 1830:276 JLINK_GetEmuCaps()  returns 0xB8EA5A33 (0000ms, 1419ms total)
T695C 1830:277 JLINK_TIF_GetAvailable(...) (0000ms, 1419ms total)
T695C 1830:277 JLINK_SetErrorOutHandler(...) (0000ms, 1419ms total)
T695C 1830:277 JLINK_ExecCommand("ProjectFile = "C:\Users\atrujillo\Desktop\microps\final\microcontroller\SAM4S4B_lab7\JLinkSettings.ini"", ...).   returns 0x00 (0002ms, 1421ms total)
T695C 1830:279 JLINK_ExecCommand("Device = ATSAM4S4B", ...). Device "ATSAM4S4B" selected.  returns 0x00 (0002ms, 1423ms total)
T695C 1830:281 JLINK_ExecCommand("DisableConnectionTimeout", ...).   returns 0x01 (0000ms, 1423ms total)
T695C 1830:281 JLINK_GetHardwareVersion()  returns 0x2710 (0000ms, 1423ms total)
T695C 1830:281 JLINK_GetDLLVersion()  returns 65002 (0000ms, 1423ms total)
T695C 1830:281 JLINK_GetFirmwareString(...) (0000ms, 1423ms total)
T695C 1830:281 JLINK_GetDLLVersion()  returns 65002 (0000ms, 1423ms total)
T695C 1830:281 JLINK_GetCompileDateTime() (0000ms, 1423ms total)
T695C 1830:281 JLINK_GetFirmwareString(...) (0000ms, 1423ms total)
T695C 1830:281 JLINK_GetHardwareVersion()  returns 0x2710 (0000ms, 1423ms total)
T695C 1830:281 JLINK_TIF_Select(JLINKARM_TIF_JTAG)  returns 0x00 (0001ms, 1424ms total)
T695C 1830:282 JLINK_SetSpeed(5000) (0000ms, 1424ms total)
T695C 1830:282 JLINK_GetIdData(...) >0x2F8 JTAG>TotalIRLen = 4, IRPrint = 0x01 >0x30 JTAG> >0x30 JTAG>JTAG chain detection found 1 devices: #0 Id: 0x4BA00477, IRLen: 04, CoreSight JTAG-DPScanning AP map to find all available APs >0x78 JTAG> >0x48 JTAG> >0x40 JTAG> >0x40 JTAG> >0x48 JTAG> >0x40 JTAG>AP[1]: Stopped AP scan as end of AP map has been reachedAP[0]: AHB-AP (IDR: 0x24770011)Iterating through AP map to find AHB-AP to use >0x78 JTAG> >0x48 JTAG> >0x48 JTAG> >0x70 JTAG> >0x40 JTAG> >0x30 JTAG>
 >0x40 JTAG> >0x40 JTAG>AP[0]: Core foundAP[0]: AHB-AP ROM base: 0xE00FF000 >0x40 JTAG> >0x40 JTAG> >0x30 JTAG> >0x40 JTAG> >0x40 JTAG>CPUID register: 0x410FC241. Implementer code: 0x41 (ARM)Found Cortex-M4 r0p1, Little endian. -- Max. mem block: 0x00001700 -- CPU_ReadMem(4 bytes @ 0xE000EDF0) -- CPU_WriteMem(4 bytes @ 0xE000EDF0) -- CPU_ReadMem(4 bytes @ 0xE0002000)FPUnit: 6 code (BP) slots and 2 literal slots -- CPU_ReadMem(4 bytes @ 0xE000EDFC) -- CPU_WriteMem(4 bytes @ 0xE000EDFC)
 -- CPU_ReadMem(4 bytes @ 0xE0001000) -- CPU_WriteMem(4 bytes @ 0xE0001000) -- CPU_ReadMem(4 bytes @ 0xE000ED88) -- CPU_WriteMem(4 bytes @ 0xE000ED88) -- CPU_ReadMem(4 bytes @ 0xE000ED88) -- CPU_WriteMem(4 bytes @ 0xE000ED88)CoreSight components:ROMTbl[0] @ E00FF000 -- CPU_ReadMem(16 bytes @ 0xE00FF000) -- CPU_ReadMem(16 bytes @ 0xE000EFF0) -- CPU_ReadMem(16 bytes @ 0xE000EFE0)ROMTbl[0][0]: E000E000, CID: B105E00D, PID: 000BB000 SCS -- CPU_ReadMem(16 bytes @ 0xE0001FF0)
 -- CPU_ReadMem(16 bytes @ 0xE0001FE0)ROMTbl[0][1]: E0001000, CID: B105E00D, PID: 003BB002 DWT -- CPU_ReadMem(16 bytes @ 0xE0002FF0) -- CPU_ReadMem(16 bytes @ 0xE0002FE0)ROMTbl[0][2]: E0002000, CID: B105E00D, PID: 002BB003 FPB -- CPU_ReadMem(16 bytes @ 0xE0000FF0) -- CPU_ReadMem(16 bytes @ 0xE0000FE0)ROMTbl[0][3]: E0000000, CID: B105E00D, PID: 003BB001 ITM -- CPU_ReadMem(16 bytes @ 0xE00FF010) -- CPU_ReadMem(16 bytes @ 0xE0040FF0) -- CPU_ReadMem(16 bytes @ 0xE0040FE0)
ROMTbl[0][4]: E0040000, CID: B105900D, PID: 000BB9A1 TPIU ScanLen=4 NumDevices=1 aId[0]=0x4BA00477 aIrRead[0]=0 aScanLen[0]=0 aScanRead[0]=0 (0018ms, 1442ms total)
T695C 1830:300 JLINK_JTAG_GetDeviceID(DeviceIndex = 0)  returns 0x4BA00477 (0000ms, 1442ms total)
T695C 1830:300 JLINK_JTAG_GetDeviceInfo(DeviceIndex = 0)  returns 0x00 (0000ms, 1442ms total)
T695C 1830:300 JLINK_GetDLLVersion()  returns 65002 (0000ms, 1442ms total)
T695C 1830:300 JLINK_CORE_GetFound()  returns 0xE0000FF (0000ms, 1442ms total)
T695C 1830:301 JLINK_GetDebugInfo(0x100 = JLINKARM_ROM_TABLE_ADDR_INDEX) -- Value=0xE00FF000  returns 0x00 (0000ms, 1442ms total)
T695C 1830:301 JLINK_GetDebugInfo(0x100 = JLINKARM_ROM_TABLE_ADDR_INDEX) -- Value=0xE00FF000  returns 0x00 (0000ms, 1442ms total)
T695C 1830:301 JLINK_GetDebugInfo(0x101 = JLINKARM_DEBUG_INFO_ETM_ADDR_INDEX) -- Value=0x00000000  returns 0x00 (0000ms, 1442ms total)
T695C 1830:301 JLINK_ReadMemEx(0xE0041FF0, 0x0010 Bytes, ..., Flags = 0x02000004) -- CPU_ReadMem(16 bytes @ 0xE0041FF0) - Data: 00 00 00 00 00 00 00 00 00 00 00 00 00 00 00 00  returns 0x10 (0000ms, 1442ms total)
T695C 1830:301 JLINK_GetDebugInfo(0x102 = JLINKARM_DEBUG_INFO_MTB_ADDR_INDEX) -- Value=0x00000000  returns 0x00 (0000ms, 1442ms total)
T695C 1830:301 JLINK_GetDebugInfo(0x103 = JLINKARM_DEBUG_INFO_TPIU_ADDR_INDEX) -- Value=0xE0040000  returns 0x00 (0000ms, 1442ms total)
T695C 1830:301 JLINK_GetDebugInfo(0x104 = JLINKARM_DEBUG_INFO_ITM_ADDR_INDEX) -- Value=0xE0000000  returns 0x00 (0000ms, 1442ms total)
T695C 1830:301 JLINK_GetDebugInfo(0x105 = JLINKARM_DEBUG_INFO_DWT_ADDR_INDEX) -- Value=0xE0001000  returns 0x00 (0000ms, 1442ms total)
T695C 1830:301 JLINK_GetDebugInfo(0x106 = JLINKARM_DEBUG_INFO_FPB_ADDR_INDEX) -- Value=0xE0002000  returns 0x00 (0000ms, 1442ms total)
T695C 1830:301 JLINK_GetDebugInfo(0x107 = JLINKARM_DEBUG_INFO_NVIC_ADDR_INDEX) -- Value=0xE000E000  returns 0x00 (0000ms, 1442ms total)
T695C 1830:301 JLINK_GetDebugInfo(0x10C = JLINKARM_DEBUG_INFO_DBG_ADDR_INDEX) -- Value=0xE000EDF0  returns 0x00 (0000ms, 1442ms total)
T695C 1830:301 JLINK_GetDebugInfo(0x01 = Unknown) -- Value=0x00000001  returns 0x00 (0000ms, 1442ms total)
T695C 1830:301 JLINK_ReadMemU32(0xE000ED00, 0x0001 Items, ...) -- CPU_ReadMem(4 bytes @ 0xE000ED00) - Data: 41 C2 0F 41  returns 1 (0001ms, 1443ms total)
T695C 1830:302 JLINK_GetDebugInfo(0x10F = JLINKARM_DEBUG_INFO_HAS_CORTEX_M_SECURITY_EXT_INDEX) -- Value=0x00000000  returns 0x00 (0000ms, 1443ms total)
T695C 1830:302 JLINK_SetResetType(JLINKARM_CM3_RESET_TYPE_NORMAL)  returns JLINKARM_CM3_RESET_TYPE_NORMAL (0000ms, 1443ms total)
T695C 1830:302 JLINK_Reset() -- CPU_ReadMem(16 bytes @ 0x20000000) -- CPU_WriteMem(16 bytes @ 0x20000000) -- CPU_ReadMem(4 bytes @ 0xE000EDFC) -- CPU_WriteMem(4 bytes @ 0xE000EDFC) -- CPU_ReadMem(4 bytes @ 0xE0001000) -- CPU_WriteMem(4 bytes @ 0xE000EDFC) -- CPU_WriteMem(16 bytes @ 0x20000000) -- CPU_WriteMem(4 bytes @ 0xE0002000) -- CPU_ReadMem(4 bytes @ 0xE000EDFC) -- CPU_ReadMem(4 bytes @ 0xE0001000) (0024ms, 1467ms total)
T695C 1830:326 JLINK_ReadReg(R15 (PC))  returns 0x004001A0 (0000ms, 1467ms total)
T695C 1830:326 JLINK_ReadReg(XPSR)  returns 0x01000000 (0000ms, 1467ms total)
T695C 1830:326 JLINK_Halt()  returns 0x00 (0000ms, 1467ms total)
T695C 1830:326 JLINK_ReadMemU32(0xE000EDF0, 0x0001 Items, ...) -- CPU_ReadMem(4 bytes @ 0xE000EDF0) - Data: 0B 00 03 00  returns 1 (0001ms, 1468ms total)
T695C 1830:327 JLINK_WriteU32(0xE000EDF0, 0xA05F0003) -- CPU_WriteMem(4 bytes @ 0xE000EDF0)  returns 0 (0000ms, 1468ms total)
T695C 1830:327 JLINK_WriteU32(0xE000EDFC, 0x01000000) -- CPU_WriteMem(4 bytes @ 0xE000EDFC)  returns 0 (0001ms, 1469ms total)
T695C 1830:328 JLINK_GetHWStatus(...)  returns 0x00 (0000ms, 1469ms total)
T695C 1830:328 JLINK_GetNumBPUnits(Type = 0xFFFFFF00)  returns 0x06 (0000ms, 1469ms total)
T695C 1830:328 JLINK_GetNumBPUnits(Type = 0xF0)  returns 0x2000 (0000ms, 1469ms total)
T695C 1830:328 JLINK_GetNumWPUnits()  returns 0x04 (0000ms, 1469ms total)
T695C 1830:328 JLINK_GetSpeed()  returns 0xFA0 (0000ms, 1469ms total)
T695C 1830:328 JLINK_ReadMemU32(0xE000E004, 0x0001 Items, ...) -- CPU_ReadMem(4 bytes @ 0xE000E004) - Data: 01 00 00 00  returns 1 (0000ms, 1469ms total)
T695C 1830:328 JLINK_ReadMemU32(0xE000E004, 0x0001 Items, ...) -- CPU_ReadMem(4 bytes @ 0xE000E004) - Data: 01 00 00 00  returns 1 (0001ms, 1470ms total)
T695C 1830:329 JLINK_WriteMemEx(0xE0001000, 0x001C Bytes, ..., Flags = 0x02000004) - Data: 01 00 00 00 00 00 00 00 00 00 00 00 00 00 00 00 ... -- CPU_WriteMem(28 bytes @ 0xE0001000)  returns 0x1C (0001ms, 1471ms total)
T695C 1830:330 JLINK_ReadReg(R15 (PC))  returns 0x004001A0 (0000ms, 1471ms total)
T695C 1830:330 JLINK_ReadReg(XPSR)  returns 0x01000000 (0000ms, 1471ms total)
T695C 1830:405 JLINK_SetResetType(JLINKARM_CM3_RESET_TYPE_NORMAL)  returns JLINKARM_CM3_RESET_TYPE_NORMAL (0000ms, 1471ms total)
T695C 1830:405 JLINK_Reset() -- CPU_ReadMem(16 bytes @ 0x20000000) -- CPU_WriteMem(16 bytes @ 0x20000000) -- CPU_ReadMem(4 bytes @ 0xE000EDFC) -- CPU_WriteMem(4 bytes @ 0xE000EDFC) -- CPU_ReadMem(4 bytes @ 0xE0001000) -- CPU_WriteMem(4 bytes @ 0xE0001004) -- CPU_WriteMem(4 bytes @ 0xE000EDFC) -- CPU_WriteMem(16 bytes @ 0x20000000) -- CPU_WriteMem(4 bytes @ 0xE0002000) -- CPU_ReadMem(4 bytes @ 0xE000EDFC) -- CPU_ReadMem(4 bytes @ 0xE0001000) (0021ms, 1492ms total)
T695C 1830:426 JLINK_ReadReg(R15 (PC))  returns 0x004001A0 (0000ms, 1492ms total)
T695C 1830:426 JLINK_ReadReg(XPSR)  returns 0x01000000 (0000ms, 1492ms total)
T695C 1830:426 JLINK_ReadMemEx(0x004001A0, 0x003C Bytes, ..., Flags = 0x02000000) -- CPU_ReadMem(128 bytes @ 0x00400180) -- Updating C cache (128 bytes @ 0x00400180) -- Read from C cache (60 bytes @ 0x004001A0) - Data: 09 48 80 47 09 48 00 47 FE E7 FE E7 FE E7 FE E7 ...  returns 0x3C (0002ms, 1494ms total)
T6A18 1831:428 JLINK_ReadMemEx(0x004001A0, 0x0002 Bytes, ..., Flags = 0x02000000) -- Read from C cache (2 bytes @ 0x004001A0) - Data: 09 48  returns 0x02 (0000ms, 1494ms total)
T6A18 1831:428 JLINK_SetBPEx(Addr = 0x004009D8, Type = 0xFFFFFFF2)  returns 0x00000001 (0000ms, 1494ms total)
T6A18 1831:428 JLINK_Go() -- CPU_ReadMem(4 bytes @ 0xE0001000) -- CPU_WriteMem(4 bytes @ 0xE0002008) -- CPU_WriteMem(4 bytes @ 0xE000200C) -- CPU_WriteMem(4 bytes @ 0xE0002010) -- CPU_WriteMem(4 bytes @ 0xE0002014) -- CPU_WriteMem(4 bytes @ 0xE0002018) -- CPU_WriteMem(4 bytes @ 0xE000201C) -- CPU_WriteMem(4 bytes @ 0xE0001004) (0003ms, 1497ms total)
T6A18 1831:532 JLINK_IsHalted()  returns TRUE (0003ms, 1500ms total)
T6A18 1831:535 JLINK_Halt()  returns 0x00 (0000ms, 1497ms total)
T6A18 1831:535 JLINK_IsHalted()  returns TRUE (0000ms, 1497ms total)
T6A18 1831:535 JLINK_IsHalted()  returns TRUE (0000ms, 1497ms total)
T6A18 1831:535 JLINK_IsHalted()  returns TRUE (0000ms, 1497ms total)
T6A18 1831:535 JLINK_ReadReg(R15 (PC))  returns 0x004009D8 (0000ms, 1497ms total)
T6A18 1831:535 JLINK_ReadReg(XPSR)  returns 0x61000000 (0000ms, 1497ms total)
T6A18 1831:535 JLINK_ClrBPEx(BPHandle = 0x00000001)  returns 0x00 (0000ms, 1497ms total)
T6A18 1831:535 JLINK_ReadMemU32(0xE000ED30, 0x0001 Items, ...) -- CPU_ReadMem(4 bytes @ 0xE000ED30) - Data: 03 00 00 00  returns 1 (0001ms, 1498ms total)
T6A18 1831:536 JLINK_ReadMemU32(0xE0001028, 0x0001 Items, ...) -- CPU_ReadMem(4 bytes @ 0xE0001028) - Data: 00 00 00 00  returns 1 (0000ms, 1498ms total)
T6A18 1831:536 JLINK_ReadMemU32(0xE0001038, 0x0001 Items, ...) -- CPU_ReadMem(4 bytes @ 0xE0001038) - Data: 00 02 00 00  returns 1 (0001ms, 1499ms total)
T6A18 1831:537 JLINK_ReadMemU32(0xE0001048, 0x0001 Items, ...) -- CPU_ReadMem(4 bytes @ 0xE0001048) - Data: 00 00 00 00  returns 1 (0001ms, 1500ms total)
T6A18 1831:538 JLINK_ReadMemU32(0xE0001058, 0x0001 Items, ...) -- CPU_ReadMem(4 bytes @ 0xE0001058) - Data: 00 00 00 00  returns 1 (0000ms, 1500ms total)
T6A18 1831:538 JLINK_ReadReg(R0)  returns 0x200001A8 (0000ms, 1500ms total)
T6A18 1831:538 JLINK_ReadReg(R1)  returns 0x200003A8 (0000ms, 1500ms total)
T6A18 1831:538 JLINK_ReadReg(R2)  returns 0x200003A8 (0000ms, 1500ms total)
T6A18 1831:538 JLINK_ReadReg(R3)  returns 0x200003A8 (0000ms, 1500ms total)
T6A18 1831:538 JLINK_ReadReg(R4)  returns 0x00000000 (0000ms, 1500ms total)
T6A18 1831:538 JLINK_ReadReg(R5)  returns 0x20000144 (0000ms, 1500ms total)
T6A18 1831:538 JLINK_ReadReg(R6)  returns 0x00000000 (0000ms, 1500ms total)
T6A18 1831:538 JLINK_ReadReg(R7)  returns 0x00000000 (0000ms, 1500ms total)
T6A18 1831:538 JLINK_ReadReg(R8)  returns 0x00000000 (0000ms, 1500ms total)
T6A18 1831:538 JLINK_ReadReg(R9)  returns 0x200001B0 (0000ms, 1500ms total)
T6A18 1831:538 JLINK_ReadReg(R10)  returns 0x0040103C (0000ms, 1500ms total)
T6A18 1831:538 JLINK_ReadReg(R11)  returns 0x00000000 (0000ms, 1500ms total)
T6A18 1831:538 JLINK_ReadReg(R12)  returns 0x20000184 (0000ms, 1500ms total)
T6A18 1831:538 JLINK_ReadReg(R13 (SP))  returns 0x200005A8 (0000ms, 1500ms total)
T6A18 1831:538 JLINK_ReadReg(R14)  returns 0x0040015B (0000ms, 1500ms total)
T6A18 1831:538 JLINK_ReadReg(R15 (PC))  returns 0x004009D8 (0000ms, 1500ms total)
T6A18 1831:538 JLINK_ReadReg(XPSR)  returns 0x61000000 (0000ms, 1500ms total)
T6A18 1831:538 JLINK_ReadReg(MSP)  returns 0x200005A8 (0000ms, 1500ms total)
T6A18 1831:538 JLINK_ReadReg(PSP)  returns 0x20001000 (0000ms, 1500ms total)
T6A18 1831:538 JLINK_ReadReg(CFBP)  returns 0x00000000 (0000ms, 1500ms total)
T6A18 1831:538 JLINK_ReadReg(FPSCR)  returns 0x00000000 (0005ms, 1505ms total)
T6A18 1831:543 JLINK_ReadReg(FPS0)  returns 0x00000000 (0000ms, 1505ms total)
T6A18 1831:543 JLINK_ReadReg(FPS1)  returns 0x00000000 (0000ms, 1505ms total)
T6A18 1831:543 JLINK_ReadReg(FPS2)  returns 0x00000000 (0000ms, 1505ms total)
T6A18 1831:543 JLINK_ReadReg(FPS3)  returns 0x00000000 (0000ms, 1505ms total)
T6A18 1831:543 JLINK_ReadReg(FPS4)  returns 0x00000000 (0000ms, 1505ms total)
T6A18 1831:543 JLINK_ReadReg(FPS5)  returns 0x00000000 (0000ms, 1505ms total)
T6A18 1831:543 JLINK_ReadReg(FPS6)  returns 0x00000000 (0000ms, 1505ms total)
T6A18 1831:543 JLINK_ReadReg(FPS7)  returns 0x00000000 (0000ms, 1505ms total)
T6A18 1831:543 JLINK_ReadReg(FPS8)  returns 0x00000000 (0000ms, 1505ms total)
T6A18 1831:543 JLINK_ReadReg(FPS9)  returns 0x00000000 (0000ms, 1505ms total)
T6A18 1831:543 JLINK_ReadReg(FPS10)  returns 0x00000000 (0000ms, 1505ms total)
T6A18 1831:543 JLINK_ReadReg(FPS11)  returns 0x00000000 (0000ms, 1505ms total)
T6A18 1831:543 JLINK_ReadReg(FPS12)  returns 0x00000000 (0000ms, 1505ms total)
T6A18 1831:543 JLINK_ReadReg(FPS13)  returns 0x00000000 (0000ms, 1505ms total)
T6A18 1831:543 JLINK_ReadReg(FPS14)  returns 0x00000000 (0000ms, 1505ms total)
T6A18 1831:543 JLINK_ReadReg(FPS15)  returns 0x00000000 (0000ms, 1505ms total)
T6A18 1831:543 JLINK_ReadReg(FPS16)  returns 0x00000000 (0000ms, 1505ms total)
T6A18 1831:543 JLINK_ReadReg(FPS17)  returns 0x00000000 (0000ms, 1505ms total)
T6A18 1831:543 JLINK_ReadReg(FPS18)  returns 0x00000000 (0000ms, 1505ms total)
T6A18 1831:543 JLINK_ReadReg(FPS19)  returns 0x00000000 (0000ms, 1505ms total)
T6A18 1831:543 JLINK_ReadReg(FPS20)  returns 0x00000000 (0000ms, 1505ms total)
T6A18 1831:543 JLINK_ReadReg(FPS21)  returns 0x00000000 (0000ms, 1505ms total)
T6A18 1831:543 JLINK_ReadReg(FPS22)  returns 0x00000000 (0000ms, 1505ms total)
T6A18 1831:543 JLINK_ReadReg(FPS23)  returns 0x00000000 (0000ms, 1505ms total)
T6A18 1831:543 JLINK_ReadReg(FPS24)  returns 0x00000000 (0000ms, 1505ms total)
T6A18 1831:543 JLINK_ReadReg(FPS25)  returns 0x00000000 (0000ms, 1505ms total)
T6A18 1831:543 JLINK_ReadReg(FPS26)  returns 0x00000000 (0000ms, 1505ms total)
T6A18 1831:543 JLINK_ReadReg(FPS27)  returns 0x00000000 (0000ms, 1505ms total)
T6A18 1831:543 JLINK_ReadReg(FPS28)  returns 0x00000000 (0000ms, 1505ms total)
T6A18 1831:543 JLINK_ReadReg(FPS29)  returns 0x00000000 (0000ms, 1505ms total)
T6A18 1831:543 JLINK_ReadReg(FPS30)  returns 0x00000000 (0000ms, 1505ms total)
T6A18 1831:543 JLINK_ReadReg(FPS31)  returns 0x00000000 (0000ms, 1505ms total)
T695C 1831:544 JLINK_ReadMemEx(0x00000000, 0x0004 Bytes, ..., Flags = 0x02000000) -- CPU_ReadMem(4 bytes @ 0x00000004) -- CPU_ReadMem(64 bytes @ 0x00400000) -- Updating C cache (64 bytes @ 0x00400000) -- Read from C cache (4 bytes @ 0x00400000) - Data: A8 05 00 20  returns 0x04 (0002ms, 1507ms total)
T695C 1831:546 JLINK_ReadMemEx(0x200005A4, 0x0002 Bytes, ..., Flags = 0x02000000) -- CPU_ReadMem(64 bytes @ 0x20000580) -- Updating C cache (64 bytes @ 0x20000580) -- Read from C cache (2 bytes @ 0x200005A4) - Data: 57 01  returns 0x02 (0002ms, 1509ms total)
T695C 1831:548 JLINK_ReadMemEx(0x2000056C, 0x0020 Bytes, ..., Flags = 0x02000000) -- CPU_ReadMem(64 bytes @ 0x20000540) -- Updating C cache (64 bytes @ 0x20000540) -- Read from C cache (32 bytes @ 0x2000056C) - Data: 00 00 00 00 00 00 00 00 00 00 00 00 00 00 00 00 ...  returns 0x20 (0001ms, 1510ms total)
T695C 1831:564 JLINK_ReadMemU32(0xE0001004, 0x0001 Items, ...) -- CPU_ReadMem(4 bytes @ 0xE0001004) - Data: E6 07 00 00  returns 1 (0000ms, 1510ms total)
T695C 1831:566 JLINK_ReadMemEx(0x004008D8, 0x003C Bytes, ..., Flags = 0x02000000) -- CPU_ReadMem(128 bytes @ 0x004008C0) -- Updating C cache (128 bytes @ 0x004008C0) -- Read from C cache (60 bytes @ 0x004008D8) - Data: 90 F8 24 20 8D F8 08 20 90 F8 23 20 8D F8 24 20 ...  returns 0x3C (0002ms, 1512ms total)
T695C 1831:568 JLINK_ReadMemEx(0x00400914, 0x003C Bytes, ..., Flags = 0x02000000) -- CPU_ReadMem(64 bytes @ 0x00400940) -- Updating C cache (64 bytes @ 0x00400940) -- Read from C cache (60 bytes @ 0x00400914) - Data: C2 79 8D F8 05 20 02 78 8D F8 06 20 C2 78 8D F8 ...  returns 0x3C (0002ms, 1514ms total)
T695C 1831:570 JLINK_ReadMemEx(0x00400950, 0x003C Bytes, ..., Flags = 0x02000000) -- CPU_ReadMem(64 bytes @ 0x00400980) -- Updating C cache (64 bytes @ 0x00400980) -- Read from C cache (60 bytes @ 0x00400950) - Data: 2F 20 8D F8 0B 20 42 7A 8D F8 24 20 82 7A 8D F8 ...  returns 0x3C (0001ms, 1515ms total)
T695C 1831:571 JLINK_ReadMemEx(0x0040098C, 0x003C Bytes, ..., Flags = 0x02000000) -- CPU_ReadMem(64 bytes @ 0x004009C0) -- Updating C cache (64 bytes @ 0x004009C0) -- Read from C cache (60 bytes @ 0x0040098C) - Data: 36 2A F9 DB 0E B0 10 BD 10 F8 30 1F 49 01 42 78 ...  returns 0x3C (0001ms, 1516ms total)
T695C 1831:572 JLINK_ReadMemEx(0x004009C8, 0x003C Bytes, ..., Flags = 0x02000000) -- CPU_ReadMem(64 bytes @ 0x00400A00) -- Updating C cache (64 bytes @ 0x00400A00) -- Read from C cache (60 bytes @ 0x004009C8) - Data: 00 22 42 EA 81 11 01 4A 11 75 70 47 48 00 00 20 ...  returns 0x3C (0001ms, 1517ms total)
T6A18 1845:285 JLINK_ReadMemEx(0x004009D8, 0x0002 Bytes, ..., Flags = 0x02000000) -- Read from C cache (2 bytes @ 0x004009D8) - Data: 90 B0  returns 0x02 (0000ms, 1517ms total)
T6A18 1845:285 JLINK_SetBPEx(Addr = 0x00400A10, Type = 0xFFFFFFF2)  returns 0x00000002 (0001ms, 1518ms total)
T6A18 1845:286 JLINK_Go() -- CPU_ReadMem(4 bytes @ 0xE0001000) -- CPU_WriteMem(4 bytes @ 0xE0002008) (0002ms, 1520ms total)
T6A18 1845:390 JLINK_IsHalted()  returns TRUE (0003ms, 1523ms total)
T6A18 1845:393 JLINK_Halt()  returns 0x00 (0000ms, 1520ms total)
T6A18 1845:393 JLINK_IsHalted()  returns TRUE (0000ms, 1520ms total)
T6A18 1845:393 JLINK_IsHalted()  returns TRUE (0000ms, 1520ms total)
T6A18 1845:393 JLINK_IsHalted()  returns TRUE (0000ms, 1520ms total)
T6A18 1845:393 JLINK_ReadReg(R15 (PC))  returns 0x00400A10 (0000ms, 1520ms total)
T6A18 1845:393 JLINK_ReadReg(XPSR)  returns 0x01000000 (0001ms, 1521ms total)
T6A18 1845:394 JLINK_ClrBPEx(BPHandle = 0x00000002)  returns 0x00 (0000ms, 1521ms total)
T6A18 1845:394 JLINK_ReadMemU32(0xE000ED30, 0x0001 Items, ...) -- CPU_ReadMem(4 bytes @ 0xE000ED30) - Data: 02 00 00 00  returns 1 (0001ms, 1522ms total)
T6A18 1845:395 JLINK_ReadMemU32(0xE0001028, 0x0001 Items, ...) -- CPU_ReadMem(4 bytes @ 0xE0001028) - Data: 00 00 00 00  returns 1 (0001ms, 1523ms total)
T6A18 1845:396 JLINK_ReadMemU32(0xE0001038, 0x0001 Items, ...) -- CPU_ReadMem(4 bytes @ 0xE0001038) - Data: 00 02 00 00  returns 1 (0001ms, 1524ms total)
T6A18 1845:397 JLINK_ReadMemU32(0xE0001048, 0x0001 Items, ...) -- CPU_ReadMem(4 bytes @ 0xE0001048) - Data: 00 00 00 00  returns 1 (0001ms, 1525ms total)
T6A18 1845:398 JLINK_ReadMemU32(0xE0001058, 0x0001 Items, ...) -- CPU_ReadMem(4 bytes @ 0xE0001058) - Data: 00 00 00 00  returns 1 (0001ms, 1526ms total)
T6A18 1845:399 JLINK_ReadReg(R0)  returns 0x00200000 (0000ms, 1526ms total)
T6A18 1845:399 JLINK_ReadReg(R1)  returns 0x00200000 (0000ms, 1526ms total)
T6A18 1845:399 JLINK_ReadReg(R2)  returns 0x00000015 (0000ms, 1526ms total)
T6A18 1845:399 JLINK_ReadReg(R3)  returns 0x00000000 (0000ms, 1526ms total)
T6A18 1845:399 JLINK_ReadReg(R4)  returns 0x00000000 (0000ms, 1526ms total)
T6A18 1845:399 JLINK_ReadReg(R5)  returns 0x20000144 (0000ms, 1526ms total)
T6A18 1845:399 JLINK_ReadReg(R6)  returns 0x00000000 (0001ms, 1527ms total)
T6A18 1845:400 JLINK_ReadReg(R7)  returns 0x00000000 (0000ms, 1527ms total)
T6A18 1845:400 JLINK_ReadReg(R8)  returns 0x00000000 (0000ms, 1527ms total)
T6A18 1845:400 JLINK_ReadReg(R9)  returns 0x200001B0 (0000ms, 1527ms total)
T6A18 1845:400 JLINK_ReadReg(R10)  returns 0x0040103C (0000ms, 1527ms total)
T6A18 1845:400 JLINK_ReadReg(R11)  returns 0x00000000 (0000ms, 1527ms total)
T6A18 1845:400 JLINK_ReadReg(R12)  returns 0x20000184 (0000ms, 1527ms total)
T6A18 1845:400 JLINK_ReadReg(R13 (SP))  returns 0x20000568 (0000ms, 1527ms total)
T6A18 1845:400 JLINK_ReadReg(R14)  returns 0x00400BE5 (0000ms, 1527ms total)
T6A18 1845:400 JLINK_ReadReg(R15 (PC))  returns 0x00400A10 (0000ms, 1527ms total)
T6A18 1845:400 JLINK_ReadReg(XPSR)  returns 0x01000000 (0000ms, 1527ms total)
T6A18 1845:401 JLINK_ReadReg(MSP)  returns 0x20000568 (0000ms, 1528ms total)
T6A18 1845:401 JLINK_ReadReg(PSP)  returns 0x20001000 (0000ms, 1528ms total)
T6A18 1845:401 JLINK_ReadReg(CFBP)  returns 0x00000000 (0000ms, 1528ms total)
T6A18 1845:401 JLINK_ReadReg(FPSCR)  returns 0x00000000 (0005ms, 1533ms total)
T6A18 1845:406 JLINK_ReadReg(FPS0)  returns 0x00000000 (0000ms, 1533ms total)
T6A18 1845:406 JLINK_ReadReg(FPS1)  returns 0x00000000 (0000ms, 1533ms total)
T6A18 1845:406 JLINK_ReadReg(FPS2)  returns 0x00000000 (0000ms, 1533ms total)
T6A18 1845:406 JLINK_ReadReg(FPS3)  returns 0x00000000 (0000ms, 1533ms total)
T6A18 1845:406 JLINK_ReadReg(FPS4)  returns 0x00000000 (0000ms, 1533ms total)
T6A18 1845:406 JLINK_ReadReg(FPS5)  returns 0x00000000 (0000ms, 1533ms total)
T6A18 1845:406 JLINK_ReadReg(FPS6)  returns 0x00000000 (0000ms, 1533ms total)
T6A18 1845:406 JLINK_ReadReg(FPS7)  returns 0x00000000 (0000ms, 1533ms total)
T6A18 1845:406 JLINK_ReadReg(FPS8)  returns 0x00000000 (0001ms, 1534ms total)
T6A18 1845:407 JLINK_ReadReg(FPS9)  returns 0x00000000 (0000ms, 1534ms total)
T6A18 1845:407 JLINK_ReadReg(FPS10)  returns 0x00000000 (0000ms, 1534ms total)
T6A18 1845:407 JLINK_ReadReg(FPS11)  returns 0x00000000 (0000ms, 1534ms total)
T6A18 1845:407 JLINK_ReadReg(FPS12)  returns 0x00000000 (0000ms, 1534ms total)
T6A18 1845:407 JLINK_ReadReg(FPS13)  returns 0x00000000 (0000ms, 1534ms total)
T6A18 1845:407 JLINK_ReadReg(FPS14)  returns 0x00000000 (0000ms, 1534ms total)
T6A18 1845:407 JLINK_ReadReg(FPS15)  returns 0x00000000 (0000ms, 1534ms total)
T6A18 1845:407 JLINK_ReadReg(FPS16)  returns 0x00000000 (0000ms, 1534ms total)
T6A18 1845:407 JLINK_ReadReg(FPS17)  returns 0x00000000 (0000ms, 1534ms total)
T6A18 1845:407 JLINK_ReadReg(FPS18)  returns 0x00000000 (0001ms, 1535ms total)
T6A18 1845:408 JLINK_ReadReg(FPS19)  returns 0x00000000 (0000ms, 1535ms total)
T6A18 1845:408 JLINK_ReadReg(FPS20)  returns 0x00000000 (0000ms, 1535ms total)
T6A18 1845:408 JLINK_ReadReg(FPS21)  returns 0x00000000 (0000ms, 1535ms total)
T6A18 1845:408 JLINK_ReadReg(FPS22)  returns 0x00000000 (0000ms, 1535ms total)
T6A18 1845:408 JLINK_ReadReg(FPS23)  returns 0x00000000 (0000ms, 1535ms total)
T6A18 1845:408 JLINK_ReadReg(FPS24)  returns 0x00000000 (0000ms, 1535ms total)
T6A18 1845:408 JLINK_ReadReg(FPS25)  returns 0x00000000 (0000ms, 1535ms total)
T6A18 1845:408 JLINK_ReadReg(FPS26)  returns 0x00000000 (0000ms, 1535ms total)
T6A18 1845:408 JLINK_ReadReg(FPS27)  returns 0x00000000 (0000ms, 1535ms total)
T6A18 1845:408 JLINK_ReadReg(FPS28)  returns 0x00000000 (0000ms, 1535ms total)
T6A18 1845:408 JLINK_ReadReg(FPS29)  returns 0x00000000 (0001ms, 1536ms total)
T6A18 1845:409 JLINK_ReadReg(FPS30)  returns 0x00000000 (0000ms, 1536ms total)
T6A18 1845:409 JLINK_ReadReg(FPS31)  returns 0x00000000 (0000ms, 1536ms total)
T695C 1845:409 JLINK_ReadMemEx(0x00000000, 0x0004 Bytes, ..., Flags = 0x02000000) -- CPU_ReadMem(4 bytes @ 0x00000004) -- CPU_ReadMem(64 bytes @ 0x00400000) -- Updating C cache (64 bytes @ 0x00400000) -- Read from C cache (4 bytes @ 0x00400000) - Data: A8 05 00 20  returns 0x04 (0002ms, 1538ms total)
T695C 1845:411 JLINK_ReadMemEx(0x200005A4, 0x0002 Bytes, ..., Flags = 0x02000000) -- CPU_ReadMem(64 bytes @ 0x20000580) -- Updating C cache (64 bytes @ 0x20000580) -- Read from C cache (2 bytes @ 0x200005A4) - Data: 57 01  returns 0x02 (0001ms, 1539ms total)
T695C 1845:412 JLINK_ReadMemEx(0x2000056C, 0x0020 Bytes, ..., Flags = 0x02000000) -- CPU_ReadMem(64 bytes @ 0x20000540) -- Updating C cache (64 bytes @ 0x20000540) -- Read from C cache (32 bytes @ 0x2000056C) - Data: 00 00 00 00 00 00 00 00 00 00 00 00 00 00 00 00 ...  returns 0x20 (0002ms, 1541ms total)
T695C 1845:414 JLINK_ReadMemU32(0xE0001004, 0x0001 Items, ...) -- CPU_ReadMem(4 bytes @ 0xE0001004) - Data: 4A 0E 00 00  returns 1 (0001ms, 1542ms total)
T695C 1845:422 JLINK_ReadMemEx(0x00400A08, 0x003C Bytes, ..., Flags = 0x02000000) -- CPU_ReadMem(128 bytes @ 0x00400A00) -- Updating C cache (128 bytes @ 0x00400A00) -- Read from C cache (60 bytes @ 0x00400A08) - Data: 00 21 15 20 00 F0 75 F8 00 21 16 20 00 F0 71 F8 ...  returns 0x3C (0002ms, 1544ms total)
T6A18 1852:435 JLINK_ReadMemEx(0x00400A10, 0x0002 Bytes, ..., Flags = 0x02000000) -- Read from C cache (2 bytes @ 0x00400A10) - Data: 00 21  returns 0x02 (0000ms, 1544ms total)
T6A18 1852:435 JLINK_Step() -- Read from C cache (2 bytes @ 0x00400A10) -- CPU_ReadMem(4 bytes @ 0xE000ED18) -- CPU_WriteMem(4 bytes @ 0xE000ED18) -- CPU_ReadMem(4 bytes @ 0xE000ED18) -- CPU_WriteMem(4 bytes @ 0xE000ED18) -- Simulated  returns 0x00 (0004ms, 1548ms total)
T6A18 1852:439 JLINK_ReadReg(R15 (PC))  returns 0x00400A12 (0000ms, 1548ms total)
T6A18 1852:439 JLINK_ReadReg(XPSR)  returns 0x41000000 (0000ms, 1548ms total)
T6A18 1852:439 JLINK_Step() -- Read from C cache (2 bytes @ 0x00400A12) -- Simulated  returns 0x00 (0000ms, 1548ms total)
T6A18 1852:439 JLINK_ReadReg(R15 (PC))  returns 0x00400A14 (0000ms, 1548ms total)
T6A18 1852:439 JLINK_ReadReg(XPSR)  returns 0x01000000 (0000ms, 1548ms total)
T6A18 1852:440 JLINK_Step() -- Read from C cache (2 bytes @ 0x00400A14) -- Read from C cache (2 bytes @ 0x00400A16) -- Simulated  returns 0x00 (0000ms, 1548ms total)
T6A18 1852:440 JLINK_ReadReg(R15 (PC))  returns 0x00400AFA (0001ms, 1549ms total)
T6A18 1852:441 JLINK_ReadReg(XPSR)  returns 0x01000000 (0000ms, 1549ms total)
T6A18 1852:441 JLINK_ReadReg(R0)  returns 0x00000016 (0000ms, 1549ms total)
T6A18 1852:441 JLINK_ReadReg(R1)  returns 0x00000000 (0000ms, 1549ms total)
T6A18 1852:441 JLINK_ReadReg(R2)  returns 0x00000015 (0000ms, 1549ms total)
T6A18 1852:441 JLINK_ReadReg(R3)  returns 0x00000000 (0000ms, 1549ms total)
T6A18 1852:441 JLINK_ReadReg(R4)  returns 0x00000000 (0001ms, 1550ms total)
T6A18 1852:442 JLINK_ReadReg(R5)  returns 0x20000144 (0000ms, 1550ms total)
T6A18 1852:442 JLINK_ReadReg(R6)  returns 0x00000000 (0000ms, 1550ms total)
T6A18 1852:442 JLINK_ReadReg(R7)  returns 0x00000000 (0000ms, 1550ms total)
T6A18 1852:442 JLINK_ReadReg(R8)  returns 0x00000000 (0000ms, 1550ms total)
T6A18 1852:442 JLINK_ReadReg(R9)  returns 0x200001B0 (0000ms, 1550ms total)
T6A18 1852:442 JLINK_ReadReg(R10)  returns 0x0040103C (0000ms, 1550ms total)
T6A18 1852:442 JLINK_ReadReg(R11)  returns 0x00000000 (0001ms, 1551ms total)
T6A18 1852:443 JLINK_ReadReg(R12)  returns 0x20000184 (0000ms, 1551ms total)
T6A18 1852:443 JLINK_ReadReg(R13 (SP))  returns 0x20000568 (0000ms, 1551ms total)
T6A18 1852:443 JLINK_ReadReg(R14)  returns 0x00400A19 (0000ms, 1551ms total)
T6A18 1852:443 JLINK_ReadReg(R15 (PC))  returns 0x00400AFA (0000ms, 1551ms total)
T6A18 1852:443 JLINK_ReadReg(XPSR)  returns 0x01000000 (0000ms, 1551ms total)
T6A18 1852:443 JLINK_ReadReg(MSP)  returns 0x20000568 (0000ms, 1551ms total)
T6A18 1852:443 JLINK_ReadReg(PSP)  returns 0x20001000 (0000ms, 1551ms total)
T6A18 1852:443 JLINK_ReadReg(CFBP)  returns 0x00000000 (0001ms, 1552ms total)
T6A18 1852:444 JLINK_ReadReg(FPSCR)  returns 0x00000000 (0000ms, 1552ms total)
T6A18 1852:444 JLINK_ReadReg(FPS0)  returns 0x00000000 (0000ms, 1552ms total)
T6A18 1852:444 JLINK_ReadReg(FPS1)  returns 0x00000000 (0000ms, 1552ms total)
T6A18 1852:444 JLINK_ReadReg(FPS2)  returns 0x00000000 (0000ms, 1552ms total)
T6A18 1852:444 JLINK_ReadReg(FPS3)  returns 0x00000000 (0000ms, 1552ms total)
T6A18 1852:444 JLINK_ReadReg(FPS4)  returns 0x00000000 (0000ms, 1552ms total)
T6A18 1852:444 JLINK_ReadReg(FPS5)  returns 0x00000000 (0000ms, 1552ms total)
T6A18 1852:444 JLINK_ReadReg(FPS6)  returns 0x00000000 (0001ms, 1553ms total)
T6A18 1852:445 JLINK_ReadReg(FPS7)  returns 0x00000000 (0000ms, 1553ms total)
T6A18 1852:445 JLINK_ReadReg(FPS8)  returns 0x00000000 (0000ms, 1553ms total)
T6A18 1852:445 JLINK_ReadReg(FPS9)  returns 0x00000000 (0000ms, 1553ms total)
T6A18 1852:445 JLINK_ReadReg(FPS10)  returns 0x00000000 (0000ms, 1553ms total)
T6A18 1852:445 JLINK_ReadReg(FPS11)  returns 0x00000000 (0000ms, 1553ms total)
T6A18 1852:445 JLINK_ReadReg(FPS12)  returns 0x00000000 (0000ms, 1553ms total)
T6A18 1852:445 JLINK_ReadReg(FPS13)  returns 0x00000000 (0001ms, 1554ms total)
T6A18 1852:446 JLINK_ReadReg(FPS14)  returns 0x00000000 (0000ms, 1554ms total)
T6A18 1852:446 JLINK_ReadReg(FPS15)  returns 0x00000000 (0000ms, 1554ms total)
T6A18 1852:446 JLINK_ReadReg(FPS16)  returns 0x00000000 (0000ms, 1554ms total)
T6A18 1852:446 JLINK_ReadReg(FPS17)  returns 0x00000000 (0000ms, 1554ms total)
T6A18 1852:446 JLINK_ReadReg(FPS18)  returns 0x00000000 (0000ms, 1554ms total)
T6A18 1852:446 JLINK_ReadReg(FPS19)  returns 0x00000000 (0000ms, 1554ms total)
T6A18 1852:446 JLINK_ReadReg(FPS20)  returns 0x00000000 (0000ms, 1554ms total)
T6A18 1852:447 JLINK_ReadReg(FPS21)  returns 0x00000000 (0000ms, 1555ms total)
T6A18 1852:447 JLINK_ReadReg(FPS22)  returns 0x00000000 (0000ms, 1555ms total)
T6A18 1852:447 JLINK_ReadReg(FPS23)  returns 0x00000000 (0000ms, 1555ms total)
T6A18 1852:447 JLINK_ReadReg(FPS24)  returns 0x00000000 (0000ms, 1555ms total)
T6A18 1852:447 JLINK_ReadReg(FPS25)  returns 0x00000000 (0000ms, 1555ms total)
T6A18 1852:447 JLINK_ReadReg(FPS26)  returns 0x00000000 (0000ms, 1555ms total)
T6A18 1852:447 JLINK_ReadReg(FPS27)  returns 0x00000000 (0000ms, 1555ms total)
T6A18 1852:447 JLINK_ReadReg(FPS28)  returns 0x00000000 (0001ms, 1556ms total)
T6A18 1852:448 JLINK_ReadReg(FPS29)  returns 0x00000000 (0000ms, 1556ms total)
T6A18 1852:448 JLINK_ReadReg(FPS30)  returns 0x00000000 (0000ms, 1556ms total)
T6A18 1852:448 JLINK_ReadReg(FPS31)  returns 0x00000000 (0000ms, 1556ms total)
T695C 1852:460 JLINK_ReadMemEx(0x00000000, 0x0004 Bytes, ..., Flags = 0x02000000) -- Read from C cache (4 bytes @ 0x00400000) - Data: A8 05 00 20  returns 0x04 (0001ms, 1557ms total)
T695C 1852:461 JLINK_ReadMemEx(0x200005A4, 0x0002 Bytes, ..., Flags = 0x02000000) -- Read from C cache (2 bytes @ 0x200005A4) - Data: 57 01  returns 0x02 (0000ms, 1557ms total)
T695C 1852:461 JLINK_ReadMemEx(0x2000056C, 0x0020 Bytes, ..., Flags = 0x02000000) -- Read from C cache (32 bytes @ 0x2000056C) - Data: 00 00 00 00 00 00 00 00 00 00 00 00 00 00 00 00 ...  returns 0x20 (0000ms, 1557ms total)
T695C 1852:461 JLINK_ReadMemU32(0xE0001004, 0x0001 Items, ...) - Data: 4D 0E 00 00  returns 1 (0000ms, 1557ms total)
T695C 1852:464 JLINK_ReadMemEx(0x004009FA, 0x0002 Bytes, ..., Flags = 0x02000000) -- CPU_ReadMem(64 bytes @ 0x004009C0) -- Updating C cache (64 bytes @ 0x004009C0) -- Read from C cache (2 bytes @ 0x004009FA) - Data: 0F 20  returns 0x02 (0002ms, 1559ms total)
T695C 1852:466 JLINK_ReadMemEx(0x004009FC, 0x003C Bytes, ..., Flags = 0x02000000) -- Read from C cache (60 bytes @ 0x004009FC) - Data: 00 F0 7D F8 00 21 0F 20 00 F0 56 F8 00 21 15 20 ...  returns 0x3C (0000ms, 1559ms total)
T695C 1852:466 JLINK_ReadMemEx(0x00400A38, 0x003C Bytes, ..., Flags = 0x02000000) -- Read from C cache (60 bytes @ 0x00400A38) - Data: 00 21 1B 20 00 F0 5D F8 07 20 8D F8 3C 00 00 20 ...  returns 0x3C (0000ms, 1559ms total)
T695C 1852:466 JLINK_ReadMemEx(0x00400A74, 0x003C Bytes, ..., Flags = 0x02000000) -- CPU_ReadMem(64 bytes @ 0x00400A80) -- Updating C cache (64 bytes @ 0x00400A80) -- Read from C cache (60 bytes @ 0x00400A74) - Data: 01 21 1C 20 00 F0 3F F8 01 21 1C 20 00 F0 18 F8 ...  returns 0x3C (0000ms, 1559ms total)
T695C 1852:466 JLINK_ReadMemEx(0x00400AB0, 0x003C Bytes, ..., Flags = 0x02000000) -- CPU_ReadMem(64 bytes @ 0x00400AC0) -- Updating C cache (64 bytes @ 0x00400AC0) -- Read from C cache (60 bytes @ 0x00400AB0) - Data: 01 00 70 BD F0 B5 04 46 0E 46 20 46 00 F0 8A F8 ...  returns 0x3C (0001ms, 1560ms total)
T695C 1852:467 JLINK_ReadMemEx(0x00400AEC, 0x003C Bytes, ..., Flags = 0x02000000) -- CPU_ReadMem(64 bytes @ 0x00400B00) -- Updating C cache (64 bytes @ 0x00400B00) -- Read from C cache (60 bytes @ 0x00400AEC) - Data: 0B 20 00 F0 8F F8 0C 20 00 F0 8C F8 00 BD F0 B5 ...  returns 0x3C (0002ms, 1562ms total)
T6A18 1855:162 JLINK_ReadMemEx(0x00400AFA, 0x0002 Bytes, ..., Flags = 0x02000000) -- Read from C cache (2 bytes @ 0x00400AFA) - Data: F0 B5  returns 0x02 (0001ms, 1563ms total)
T6A18 1855:163 JLINK_Step() -- Read from C cache (2 bytes @ 0x00400AFA) -- CPU_WriteMem(20 bytes @ 0x20000554) -- Simulated  returns 0x00 (0001ms, 1564ms total)
T6A18 1855:164 JLINK_ReadReg(R15 (PC))  returns 0x00400AFC (0000ms, 1564ms total)
T6A18 1855:165 JLINK_ReadReg(XPSR)  returns 0x01000000 (0000ms, 1564ms total)
T6A18 1855:165 JLINK_Step() -- Read from C cache (2 bytes @ 0x00400AFC) -- Simulated  returns 0x00 (0000ms, 1564ms total)
T6A18 1855:165 JLINK_ReadReg(R15 (PC))  returns 0x00400AFE (0000ms, 1564ms total)
T6A18 1855:165 JLINK_ReadReg(XPSR)  returns 0x01000000 (0000ms, 1564ms total)
T6A18 1855:165 JLINK_Step() -- Read from C cache (2 bytes @ 0x00400AFE) -- Simulated  returns 0x00 (0000ms, 1564ms total)
T6A18 1855:165 JLINK_ReadReg(R15 (PC))  returns 0x00400B00 (0000ms, 1564ms total)
T6A18 1855:165 JLINK_ReadReg(XPSR)  returns 0x01000000 (0000ms, 1564ms total)
T6A18 1855:166 JLINK_ReadReg(R0)  returns 0x00000016 (0000ms, 1565ms total)
T6A18 1855:166 JLINK_ReadReg(R1)  returns 0x00000000 (0000ms, 1565ms total)
T6A18 1855:166 JLINK_ReadReg(R2)  returns 0x00000015 (0000ms, 1565ms total)
T6A18 1855:166 JLINK_ReadReg(R3)  returns 0x00000000 (0000ms, 1565ms total)
T6A18 1855:166 JLINK_ReadReg(R4)  returns 0x00000000 (0000ms, 1565ms total)
T6A18 1855:166 JLINK_ReadReg(R5)  returns 0x20000144 (0000ms, 1565ms total)
T6A18 1855:166 JLINK_ReadReg(R6)  returns 0x00000016 (0001ms, 1566ms total)
T6A18 1855:167 JLINK_ReadReg(R7)  returns 0x00000000 (0000ms, 1566ms total)
T6A18 1855:167 JLINK_ReadReg(R8)  returns 0x00000000 (0000ms, 1566ms total)
T6A18 1855:167 JLINK_ReadReg(R9)  returns 0x200001B0 (0000ms, 1566ms total)
T6A18 1855:167 JLINK_ReadReg(R10)  returns 0x0040103C (0000ms, 1566ms total)
T6A18 1855:167 JLINK_ReadReg(R11)  returns 0x00000000 (0000ms, 1566ms total)
T6A18 1855:167 JLINK_ReadReg(R12)  returns 0x20000184 (0001ms, 1567ms total)
T6A18 1855:168 JLINK_ReadReg(R13 (SP))  returns 0x20000554 (0000ms, 1567ms total)
T6A18 1855:168 JLINK_ReadReg(R14)  returns 0x00400A19 (0000ms, 1567ms total)
T6A18 1855:168 JLINK_ReadReg(R15 (PC))  returns 0x00400B00 (0000ms, 1567ms total)
T6A18 1855:168 JLINK_ReadReg(XPSR)  returns 0x01000000 (0000ms, 1567ms total)
T6A18 1855:168 JLINK_ReadReg(MSP)  returns 0x20000554 (0000ms, 1567ms total)
T6A18 1855:168 JLINK_ReadReg(PSP)  returns 0x20001000 (0000ms, 1567ms total)
T6A18 1855:168 JLINK_ReadReg(CFBP)  returns 0x00000000 (0000ms, 1567ms total)
T6A18 1855:169 JLINK_ReadReg(FPSCR)  returns 0x00000000 (0000ms, 1567ms total)
T6A18 1855:169 JLINK_ReadReg(FPS0)  returns 0x00000000 (0000ms, 1567ms total)
T6A18 1855:169 JLINK_ReadReg(FPS1)  returns 0x00000000 (0000ms, 1567ms total)
T6A18 1855:169 JLINK_ReadReg(FPS2)  returns 0x00000000 (0000ms, 1567ms total)
T6A18 1855:169 JLINK_ReadReg(FPS3)  returns 0x00000000 (0000ms, 1567ms total)
T6A18 1855:169 JLINK_ReadReg(FPS4)  returns 0x00000000 (0000ms, 1567ms total)
T6A18 1855:169 JLINK_ReadReg(FPS5)  returns 0x00000000 (0000ms, 1567ms total)
T6A18 1855:169 JLINK_ReadReg(FPS6)  returns 0x00000000 (0001ms, 1568ms total)
T6A18 1855:170 JLINK_ReadReg(FPS7)  returns 0x00000000 (0000ms, 1568ms total)
T6A18 1855:170 JLINK_ReadReg(FPS8)  returns 0x00000000 (0000ms, 1568ms total)
T6A18 1855:170 JLINK_ReadReg(FPS9)  returns 0x00000000 (0000ms, 1568ms total)
T6A18 1855:170 JLINK_ReadReg(FPS10)  returns 0x00000000 (0000ms, 1568ms total)
T6A18 1855:170 JLINK_ReadReg(FPS11)  returns 0x00000000 (0000ms, 1568ms total)
T6A18 1855:170 JLINK_ReadReg(FPS12)  returns 0x00000000 (0000ms, 1568ms total)
T6A18 1855:170 JLINK_ReadReg(FPS13)  returns 0x00000000 (0000ms, 1568ms total)
T6A18 1855:170 JLINK_ReadReg(FPS14)  returns 0x00000000 (0001ms, 1569ms total)
T6A18 1855:171 JLINK_ReadReg(FPS15)  returns 0x00000000 (0000ms, 1569ms total)
T6A18 1855:171 JLINK_ReadReg(FPS16)  returns 0x00000000 (0000ms, 1569ms total)
T6A18 1855:171 JLINK_ReadReg(FPS17)  returns 0x00000000 (0000ms, 1569ms total)
T6A18 1855:171 JLINK_ReadReg(FPS18)  returns 0x00000000 (0000ms, 1569ms total)
T6A18 1855:171 JLINK_ReadReg(FPS19)  returns 0x00000000 (0000ms, 1569ms total)
T6A18 1855:171 JLINK_ReadReg(FPS20)  returns 0x00000000 (0000ms, 1569ms total)
T6A18 1855:171 JLINK_ReadReg(FPS21)  returns 0x00000000 (0000ms, 1569ms total)
T6A18 1855:172 JLINK_ReadReg(FPS22)  returns 0x00000000 (0000ms, 1569ms total)
T6A18 1855:172 JLINK_ReadReg(FPS23)  returns 0x00000000 (0000ms, 1569ms total)
T6A18 1855:172 JLINK_ReadReg(FPS24)  returns 0x00000000 (0000ms, 1569ms total)
T6A18 1855:172 JLINK_ReadReg(FPS25)  returns 0x00000000 (0000ms, 1569ms total)
T6A18 1855:172 JLINK_ReadReg(FPS26)  returns 0x00000000 (0000ms, 1569ms total)
T6A18 1855:172 JLINK_ReadReg(FPS27)  returns 0x00000000 (0000ms, 1569ms total)
T6A18 1855:172 JLINK_ReadReg(FPS28)  returns 0x00000000 (0000ms, 1569ms total)
T6A18 1855:172 JLINK_ReadReg(FPS29)  returns 0x00000000 (0001ms, 1570ms total)
T6A18 1855:173 JLINK_ReadReg(FPS30)  returns 0x00000000 (0000ms, 1570ms total)
T6A18 1855:173 JLINK_ReadReg(FPS31)  returns 0x00000000 (0000ms, 1570ms total)
T695C 1855:176 JLINK_ReadMemEx(0x20000564, 0x0004 Bytes, ..., Flags = 0x02000000) -- CPU_ReadMem(64 bytes @ 0x20000540) -- Updating C cache (64 bytes @ 0x20000540) -- Read from C cache (4 bytes @ 0x20000564) - Data: 19 0A 40 00  returns 0x04 (0001ms, 1571ms total)
T695C 1855:177 JLINK_ReadMemEx(0x20000554, 0x0004 Bytes, ..., Flags = 0x02000000) -- Read from C cache (4 bytes @ 0x20000554) - Data: 00 00 00 00  returns 0x04 (0000ms, 1571ms total)
T695C 1855:177 JLINK_ReadMemEx(0x20000558, 0x0004 Bytes, ..., Flags = 0x02000000) -- Read from C cache (4 bytes @ 0x20000558) - Data: 44 01 00 20  returns 0x04 (0000ms, 1571ms total)
T695C 1855:177 JLINK_ReadMemEx(0x2000055C, 0x0004 Bytes, ..., Flags = 0x02000000) -- Read from C cache (4 bytes @ 0x2000055C) - Data: 00 00 00 00  returns 0x04 (0000ms, 1571ms total)
T695C 1855:178 JLINK_ReadMemEx(0x20000560, 0x0004 Bytes, ..., Flags = 0x02000000) -- Read from C cache (4 bytes @ 0x20000560) - Data: 00 00 00 00  returns 0x04 (0000ms, 1571ms total)
T695C 1855:178 JLINK_ReadMemEx(0x00000000, 0x0004 Bytes, ..., Flags = 0x02000000) -- Read from C cache (4 bytes @ 0x00400000) - Data: A8 05 00 20  returns 0x04 (0000ms, 1571ms total)
T695C 1855:178 JLINK_ReadMemEx(0x200005A4, 0x0002 Bytes, ..., Flags = 0x02000000) -- Read from C cache (2 bytes @ 0x200005A4) - Data: 57 01  returns 0x02 (0000ms, 1571ms total)
T695C 1855:178 JLINK_ReadMemEx(0x2000056C, 0x0020 Bytes, ..., Flags = 0x02000000) -- Read from C cache (32 bytes @ 0x2000056C) - Data: 00 00 00 00 00 00 00 00 00 00 00 00 00 00 00 00 ...  returns 0x20 (0000ms, 1571ms total)
T695C 1855:178 JLINK_ReadMemU32(0xE0001004, 0x0001 Items, ...) - Data: 55 0E 00 00  returns 1 (0000ms, 1571ms total)
T695C 1855:191 JLINK_ReadMemEx(0x00400B00, 0x003C Bytes, ..., Flags = 0x02000000) -- Read from C cache (60 bytes @ 0x00400B00) - Data: 30 46 00 F0 67 F8 04 46 30 46 F1 17 06 EB D1 61 ...  returns 0x3C (0001ms, 1572ms total)
T6A18 1855:929 JLINK_ReadMemEx(0x00400B00, 0x0002 Bytes, ..., Flags = 0x02000000) -- Read from C cache (2 bytes @ 0x00400B00) - Data: 30 46  returns 0x02 (0000ms, 1572ms total)
T6A18 1855:929 JLINK_Step() -- Read from C cache (2 bytes @ 0x00400B00) -- Simulated  returns 0x00 (0001ms, 1573ms total)
T6A18 1855:930 JLINK_ReadReg(R15 (PC))  returns 0x00400B02 (0000ms, 1573ms total)
T6A18 1855:930 JLINK_ReadReg(XPSR)  returns 0x01000000 (0000ms, 1573ms total)
T6A18 1855:930 JLINK_Step() -- Read from C cache (2 bytes @ 0x00400B02) -- Read from C cache (2 bytes @ 0x00400B04) -- Simulated  returns 0x00 (0001ms, 1574ms total)
T6A18 1855:931 JLINK_ReadReg(R15 (PC))  returns 0x00400BD4 (0000ms, 1574ms total)
T6A18 1855:931 JLINK_ReadReg(XPSR)  returns 0x01000000 (0000ms, 1574ms total)
T6A18 1855:931 JLINK_ReadReg(R0)  returns 0x00000016 (0000ms, 1574ms total)
T6A18 1855:931 JLINK_ReadReg(R1)  returns 0x00000000 (0000ms, 1574ms total)
T6A18 1855:931 JLINK_ReadReg(R2)  returns 0x00000015 (0001ms, 1575ms total)
T6A18 1855:932 JLINK_ReadReg(R3)  returns 0x00000000 (0000ms, 1575ms total)
T6A18 1855:932 JLINK_ReadReg(R4)  returns 0x00000000 (0000ms, 1575ms total)
T6A18 1855:932 JLINK_ReadReg(R5)  returns 0x20000144 (0000ms, 1575ms total)
T6A18 1855:932 JLINK_ReadReg(R6)  returns 0x00000016 (0000ms, 1575ms total)
T6A18 1855:932 JLINK_ReadReg(R7)  returns 0x00000000 (0000ms, 1575ms total)
T6A18 1855:932 JLINK_ReadReg(R8)  returns 0x00000000 (0000ms, 1575ms total)
T6A18 1855:932 JLINK_ReadReg(R9)  returns 0x200001B0 (0000ms, 1575ms total)
T6A18 1855:932 JLINK_ReadReg(R10)  returns 0x0040103C (0001ms, 1576ms total)
T6A18 1855:933 JLINK_ReadReg(R11)  returns 0x00000000 (0000ms, 1576ms total)
T6A18 1855:933 JLINK_ReadReg(R12)  returns 0x20000184 (0000ms, 1576ms total)
T6A18 1855:933 JLINK_ReadReg(R13 (SP))  returns 0x20000554 (0000ms, 1576ms total)
T6A18 1855:933 JLINK_ReadReg(R14)  returns 0x00400B07 (0000ms, 1576ms total)
T6A18 1855:933 JLINK_ReadReg(R15 (PC))  returns 0x00400BD4 (0000ms, 1576ms total)
T6A18 1855:933 JLINK_ReadReg(XPSR)  returns 0x01000000 (0000ms, 1576ms total)
T6A18 1855:933 JLINK_ReadReg(MSP)  returns 0x20000554 (0000ms, 1576ms total)
T6A18 1855:933 JLINK_ReadReg(PSP)  returns 0x20001000 (0001ms, 1577ms total)
T6A18 1855:934 JLINK_ReadReg(CFBP)  returns 0x00000000 (0000ms, 1577ms total)
T6A18 1855:934 JLINK_ReadReg(FPSCR)  returns 0x00000000 (0000ms, 1577ms total)
T6A18 1855:934 JLINK_ReadReg(FPS0)  returns 0x00000000 (0000ms, 1577ms total)
T6A18 1855:934 JLINK_ReadReg(FPS1)  returns 0x00000000 (0000ms, 1577ms total)
T6A18 1855:934 JLINK_ReadReg(FPS2)  returns 0x00000000 (0000ms, 1577ms total)
T6A18 1855:934 JLINK_ReadReg(FPS3)  returns 0x00000000 (0001ms, 1578ms total)
T6A18 1855:935 JLINK_ReadReg(FPS4)  returns 0x00000000 (0000ms, 1578ms total)
T6A18 1855:935 JLINK_ReadReg(FPS5)  returns 0x00000000 (0000ms, 1578ms total)
T6A18 1855:935 JLINK_ReadReg(FPS6)  returns 0x00000000 (0000ms, 1578ms total)
T6A18 1855:935 JLINK_ReadReg(FPS7)  returns 0x00000000 (0000ms, 1578ms total)
T6A18 1855:935 JLINK_ReadReg(FPS8)  returns 0x00000000 (0000ms, 1578ms total)
T6A18 1855:935 JLINK_ReadReg(FPS9)  returns 0x00000000 (0000ms, 1578ms total)
T6A18 1855:936 JLINK_ReadReg(FPS10)  returns 0x00000000 (0000ms, 1578ms total)
T6A18 1855:936 JLINK_ReadReg(FPS11)  returns 0x00000000 (0000ms, 1578ms total)
T6A18 1855:936 JLINK_ReadReg(FPS12)  returns 0x00000000 (0000ms, 1578ms total)
T6A18 1855:936 JLINK_ReadReg(FPS13)  returns 0x00000000 (0000ms, 1578ms total)
T6A18 1855:936 JLINK_ReadReg(FPS14)  returns 0x00000000 (0001ms, 1579ms total)
T6A18 1855:937 JLINK_ReadReg(FPS15)  returns 0x00000000 (0000ms, 1579ms total)
T6A18 1855:937 JLINK_ReadReg(FPS16)  returns 0x00000000 (0000ms, 1579ms total)
T6A18 1855:937 JLINK_ReadReg(FPS17)  returns 0x00000000 (0000ms, 1579ms total)
T6A18 1855:937 JLINK_ReadReg(FPS18)  returns 0x00000000 (0000ms, 1579ms total)
T6A18 1855:937 JLINK_ReadReg(FPS19)  returns 0x00000000 (0000ms, 1579ms total)
T6A18 1855:937 JLINK_ReadReg(FPS20)  returns 0x00000000 (0000ms, 1579ms total)
T6A18 1855:937 JLINK_ReadReg(FPS21)  returns 0x00000000 (0000ms, 1579ms total)
T6A18 1855:937 JLINK_ReadReg(FPS22)  returns 0x00000000 (0000ms, 1579ms total)
T6A18 1855:937 JLINK_ReadReg(FPS23)  returns 0x00000000 (0000ms, 1579ms total)
T6A18 1855:937 JLINK_ReadReg(FPS24)  returns 0x00000000 (0001ms, 1580ms total)
T6A18 1855:938 JLINK_ReadReg(FPS25)  returns 0x00000000 (0000ms, 1580ms total)
T6A18 1855:938 JLINK_ReadReg(FPS26)  returns 0x00000000 (0000ms, 1580ms total)
T6A18 1855:938 JLINK_ReadReg(FPS27)  returns 0x00000000 (0000ms, 1580ms total)
T6A18 1855:938 JLINK_ReadReg(FPS28)  returns 0x00000000 (0000ms, 1580ms total)
T6A18 1855:938 JLINK_ReadReg(FPS29)  returns 0x00000000 (0000ms, 1580ms total)
T6A18 1855:938 JLINK_ReadReg(FPS30)  returns 0x00000000 (0000ms, 1580ms total)
T6A18 1855:938 JLINK_ReadReg(FPS31)  returns 0x00000000 (0000ms, 1580ms total)
T695C 1855:941 JLINK_ReadMemEx(0x20000564, 0x0004 Bytes, ..., Flags = 0x02000000) -- Read from C cache (4 bytes @ 0x20000564) - Data: 19 0A 40 00  returns 0x04 (0000ms, 1580ms total)
T695C 1855:941 JLINK_ReadMemEx(0x20000554, 0x0004 Bytes, ..., Flags = 0x02000000) -- Read from C cache (4 bytes @ 0x20000554) - Data: 00 00 00 00  returns 0x04 (0000ms, 1580ms total)
T695C 1855:941 JLINK_ReadMemEx(0x20000558, 0x0004 Bytes, ..., Flags = 0x02000000) -- Read from C cache (4 bytes @ 0x20000558) - Data: 44 01 00 20  returns 0x04 (0001ms, 1581ms total)
T695C 1855:942 JLINK_ReadMemEx(0x2000055C, 0x0004 Bytes, ..., Flags = 0x02000000) -- Read from C cache (4 bytes @ 0x2000055C) - Data: 00 00 00 00  returns 0x04 (0000ms, 1581ms total)
T695C 1855:942 JLINK_ReadMemEx(0x20000560, 0x0004 Bytes, ..., Flags = 0x02000000) -- Read from C cache (4 bytes @ 0x20000560) - Data: 00 00 00 00  returns 0x04 (0000ms, 1581ms total)
T695C 1855:951 JLINK_ReadMemEx(0x00000000, 0x0004 Bytes, ..., Flags = 0x02000000) -- Read from C cache (4 bytes @ 0x00400000) - Data: A8 05 00 20  returns 0x04 (0000ms, 1581ms total)
T695C 1855:951 JLINK_ReadMemEx(0x200005A4, 0x0002 Bytes, ..., Flags = 0x02000000) -- Read from C cache (2 bytes @ 0x200005A4) - Data: 57 01  returns 0x02 (0000ms, 1581ms total)
T695C 1855:951 JLINK_ReadMemEx(0x2000056C, 0x0020 Bytes, ..., Flags = 0x02000000) -- Read from C cache (32 bytes @ 0x2000056C) - Data: 00 00 00 00 00 00 00 00 00 00 00 00 00 00 00 00 ...  returns 0x20 (0000ms, 1581ms total)
T695C 1855:951 JLINK_ReadMemU32(0xE0001004, 0x0001 Items, ...) - Data: 57 0E 00 00  returns 1 (0001ms, 1582ms total)
T695C 1855:956 JLINK_ReadMemEx(0x00400AD4, 0x003C Bytes, ..., Flags = 0x02000000) -- Read from C cache (60 bytes @ 0x00400AD4) - Data: 01 21 B9 40 08 43 28 63 04 E0 68 6B 01 21 B9 40 ...  returns 0x3C (0000ms, 1582ms total)
T695C 1855:956 JLINK_ReadMemEx(0x00400B10, 0x003C Bytes, ..., Flags = 0x02000000) -- CPU_ReadMem(64 bytes @ 0x00400B40) -- Updating C cache (64 bytes @ 0x00400B40) -- Read from C cache (60 bytes @ 0x00400B10) - Data: 49 11 A6 EB 41 15 06 2F 5A D2 DF E8 07 F0 03 0E ...  returns 0x3C (0001ms, 1583ms total)
T695C 1855:957 JLINK_ReadMemEx(0x00400B4C, 0x003C Bytes, ..., Flags = 0x02000000) -- CPU_ReadMem(64 bytes @ 0x00400B80) -- Updating C cache (64 bytes @ 0x00400B80) -- Read from C cache (60 bytes @ 0x00400B4C) - Data: 20 61 3F E0 60 68 01 21 A9 40 08 43 60 60 20 6F ...  returns 0x3C (0001ms, 1584ms total)
T695C 1855:958 JLINK_ReadMemEx(0x00400B88, 0x003C Bytes, ..., Flags = 0x02000000) -- CPU_ReadMem(64 bytes @ 0x00400BC0) -- Updating C cache (64 bytes @ 0x00400BC0) -- Read from C cache (60 bytes @ 0x00400B88) - Data: A8 40 81 43 61 67 1F E0 61 68 01 20 A8 40 01 43 ...  returns 0x3C (0001ms, 1585ms total)
T695C 1855:959 JLINK_ReadMemEx(0x00400BC4, 0x003C Bytes, ..., Flags = 0x02000000) -- Read from C cache (60 bytes @ 0x00400BC4) - Data: 60 6F 01 21 A9 40 08 43 60 67 00 BF 00 BF F0 BD ...  returns 0x3C (0000ms, 1585ms total)
T6A18 1857:087 JLINK_ReadMemEx(0x00400BD4, 0x0002 Bytes, ..., Flags = 0x02000000) -- Read from C cache (2 bytes @ 0x00400BD4) - Data: 00 B5  returns 0x02 (0001ms, 1586ms total)
T6A18 1857:088 JLINK_Step() -- Read from C cache (2 bytes @ 0x00400BD4) -- CPU_WriteMem(4 bytes @ 0x20000550) -- Simulated  returns 0x00 (0001ms, 1587ms total)
T6A18 1857:089 JLINK_ReadReg(R15 (PC))  returns 0x00400BD6 (0001ms, 1588ms total)
T6A18 1857:090 JLINK_ReadReg(XPSR)  returns 0x01000000 (0000ms, 1588ms total)
T6A18 1857:090 JLINK_Step() -- Read from C cache (2 bytes @ 0x00400BD6) -- Simulated  returns 0x00 (0000ms, 1588ms total)
T6A18 1857:090 JLINK_ReadReg(R15 (PC))  returns 0x00400BD8 (0000ms, 1588ms total)
T6A18 1857:090 JLINK_ReadReg(XPSR)  returns 0x01000000 (0000ms, 1588ms total)
T6A18 1857:090 JLINK_ReadReg(R0)  returns 0x00000016 (0000ms, 1588ms total)
T6A18 1857:090 JLINK_ReadReg(R1)  returns 0x00000000 (0001ms, 1589ms total)
T6A18 1857:091 JLINK_ReadReg(R2)  returns 0x00000016 (0000ms, 1589ms total)
T6A18 1857:091 JLINK_ReadReg(R3)  returns 0x00000000 (0000ms, 1589ms total)
T6A18 1857:091 JLINK_ReadReg(R4)  returns 0x00000000 (0000ms, 1589ms total)
T6A18 1857:091 JLINK_ReadReg(R5)  returns 0x20000144 (0000ms, 1589ms total)
T6A18 1857:091 JLINK_ReadReg(R6)  returns 0x00000016 (0000ms, 1589ms total)
T6A18 1857:091 JLINK_ReadReg(R7)  returns 0x00000000 (0000ms, 1589ms total)
T6A18 1857:091 JLINK_ReadReg(R8)  returns 0x00000000 (0000ms, 1589ms total)
T6A18 1857:091 JLINK_ReadReg(R9)  returns 0x200001B0 (0000ms, 1589ms total)
T6A18 1857:091 JLINK_ReadReg(R10)  returns 0x0040103C (0000ms, 1589ms total)
